T13948 000:011.470   SEGGER J-Link V6.89b (beta) Log File
T13948 000:011.632   DLL Compiled: Dec  3 2020 14:53:34
T13948 000:011.666   Logging started @ 2025-08-25 18:09
T13948 000:011.699 - 11.715ms
T13948 000:011.739 JLINK_SetWarnOutHandler(...)
T13948 000:011.773 - 0.050ms
T13948 000:011.807 JLINK_OpenEx(...)
T13948 000:014.219   Firmware: J-Link V9 compiled May  7 2021 16:26:12
T13948 000:014.491   Decompressing FW timestamp took 156 us
T13948 000:023.516   Hardware: V9.40
T13948 000:023.587   S/N: 69400796
T13948 000:023.634   OEM: SEGGER
T13948 000:023.681   Feature(s): RDI, GDB, FlashDL, FlashBP, JFlash
T13948 000:024.964   TELNET listener socket opened on port 19021
T13948 000:025.083   WEBSRV Starting webserver
T13948 000:025.293   WEBSRV Webserver running on local port 19080
T13948 000:025.342 - 13.551ms returns "O.K."
T13948 000:025.384 JLINK_GetEmuCaps()
T13948 000:025.419 - 0.050ms returns 0xB9FF7BBF
T13948 000:025.454 JLINK_TIF_GetAvailable(...)
T13948 000:025.681 - 0.271ms
T13948 000:025.753 JLINK_SetErrorOutHandler(...)
T13948 000:025.786 - 0.048ms
T13948 000:025.845 JLINK_ExecCommand("ProjectFile = "C:\Users\david\Desktop\New Folder (2)\STM32CubeMX\Target_1\STM32CubeMX\MDK-ARM\JLinkSettings.ini"", ...). 
T13948 000:036.384   Ref file found at: D:\Keil\ARM\Segger\JLinkDevices.ref
T13948 000:036.634   XML referenced by ref file: D:\segger\JLinkDevices.xml
T13948 000:037.420   D:\segger\JLinkDevices.xml evaluated successfully.
T13948 000:044.585 - 18.766ms returns 0x00
T13948 000:044.657 JLINK_ExecCommand("Device = STM32F407VETx", ...). 
T13948 000:045.015   Device "STM32F407VE" selected.
T13948 000:045.694 - 1.023ms returns 0x00
T13948 000:045.739 JLINK_GetHardwareVersion()
T13948 000:045.771 - 0.047ms returns 94000
T13948 000:045.804 JLINK_GetDLLVersion()
T13948 000:045.835 - 0.046ms returns 68902
T13948 000:045.867 JLINK_GetOEMString(...)
T13948 000:045.899 JLINK_GetFirmwareString(...)
T13948 000:045.930 - 0.046ms
T13948 000:045.980 JLINK_GetDLLVersion()
T13948 000:046.011 - 0.046ms returns 68902
T13948 000:046.043 JLINK_GetCompileDateTime()
T13948 000:046.073 - 0.046ms
T13948 000:046.110 JLINK_GetFirmwareString(...)
T13948 000:046.141 - 0.046ms
T13948 000:046.175 JLINK_GetHardwareVersion()
T13948 000:046.206 - 0.045ms returns 94000
T13948 000:046.241 JLINK_GetSN()
T13948 000:046.272 - 0.046ms returns 69400796
T13948 000:046.307 JLINK_GetOEMString(...)
T13948 000:046.353 JLINK_TIF_Select(JLINKARM_TIF_JTAG)
T13948 000:047.429 - 1.099ms returns 0x00
T13948 000:047.470 JLINK_HasError()
T13948 000:047.518 JLINK_SetSpeed(5000)
T13948 000:047.613 - 0.114ms
T13948 000:047.650 JLINK_GetIdData(pIdData)
T13948 000:049.633   TotalIRLen = 9, IRPrint = 0x0011
T13948 000:050.146   JTAG chain detection found 2 devices:
T13948 000:050.230    #0 Id: 0x4BA00477, IRLen: 04, CoreSight JTAG-DP
T13948 000:050.280    #1 Id: 0x06413041, IRLen: 05, STM32 Boundary Scan
T13948 000:060.293   TotalIRLen = 9, IRPrint = 0x0011
T13948 000:061.301   JTAG chain detection found 2 devices:
T13948 000:061.368    #0 Id: 0x4BA00477, IRLen: 04, CoreSight JTAG-DP
T13948 000:061.418    #1 Id: 0x06413041, IRLen: 05, STM32 Boundary Scan
T13948 000:063.711   DPv0 detected
T13948 000:063.806   Scanning AP map to find all available APs
T13948 000:064.394   AP[1]: Stopped AP scan as end of AP map has been reached
T13948 000:064.451   AP[0]: AHB-AP (IDR: 0x24770011)
T13948 000:064.500   Iterating through AP map to find AHB-AP to use
T13948 000:066.110   AP[0]: Core found
T13948 000:066.162   AP[0]: AHB-AP ROM base: 0xE00FF000
T13948 000:066.569   CPUID register: 0x410FC241. Implementer code: 0x41 (ARM)
T13948 000:066.621   Found Cortex-M4 r0p1, Little endian.
T13948 000:066.931   -- Max. mem block: 0x00010E60
T13948 000:067.084   CPU_ReadMem(4 bytes @ 0xE000EDF0)
T13948 000:068.609   CPU_ReadMem(4 bytes @ 0xE0002000)
T13948 000:068.944   FPUnit: 6 code (BP) slots and 2 literal slots
T13948 000:068.992   CPU_ReadMem(4 bytes @ 0xE000EDFC)
T13948 000:069.387   CPU_WriteMem(4 bytes @ 0xE000EDFC)
T13948 000:069.779   CPU_ReadMem(4 bytes @ 0xE0001000)
T13948 000:070.115   CPU_WriteMem(4 bytes @ 0xE0001000)
T13948 000:070.416   CPU_ReadMem(4 bytes @ 0xE000ED88)
T13948 000:070.768   CPU_WriteMem(4 bytes @ 0xE000ED88)
T13948 000:071.218   CPU_ReadMem(4 bytes @ 0xE000ED88)
T13948 000:071.679   CPU_WriteMem(4 bytes @ 0xE000ED88)
T13948 000:072.175   CoreSight components:
T13948 000:072.284   ROMTbl[0] @ E00FF000
T13948 000:072.338   CPU_ReadMem(64 bytes @ 0xE00FF000)
T13948 000:072.926   CPU_ReadMem(32 bytes @ 0xE000EFE0)
T13948 000:073.501   ROMTbl[0][0]: E000E000, CID: B105E00D, PID: 000BB00C SCS-M7
T13948 000:073.553   CPU_ReadMem(32 bytes @ 0xE0001FE0)
T13948 000:074.141   ROMTbl[0][1]: E0001000, CID: B105E00D, PID: 003BB002 DWT
T13948 000:074.199   CPU_ReadMem(32 bytes @ 0xE0002FE0)
T13948 000:074.691   ROMTbl[0][2]: E0002000, CID: B105E00D, PID: 002BB003 FPB
T13948 000:074.743   CPU_ReadMem(32 bytes @ 0xE0000FE0)
T13948 000:075.217   ROMTbl[0][3]: E0000000, CID: B105E00D, PID: 003BB001 ITM
T13948 000:075.301   CPU_ReadMem(32 bytes @ 0xE0040FE0)
T13948 000:075.822   ROMTbl[0][4]: E0040000, CID: B105900D, PID: 000BB9A1 TPIU
T13948 000:075.891   CPU_ReadMem(32 bytes @ 0xE0041FE0)
T13948 000:076.419   ROMTbl[0][5]: E0041000, CID: B105900D, PID: 000BB925 ETM
T13948 000:076.547   pIdData->ScanLen=9
T13948 000:076.601   
T13948 000:076.637   pIdData->NumDevices=2
T13948 000:076.694   
T13948 000:076.730   pIdData->aId[0]=0x4BA00477
T13948 000:076.782   
T13948 000:076.818   pIdData->aIrRead[0]=0
T13948 000:076.870   
T13948 000:076.905   pIdData->aScanLen[0]=0
T13948 000:076.957   
T13948 000:076.992   pIdData->aScanRead[0]=0
T13948 000:077.045   
T13948 000:077.079 - 29.447ms
T13948 000:077.130 JLINK_JTAG_GetDeviceID(DeviceIndex = 0)
T13948 000:077.168 - 0.055ms returns 1268778103
T13948 000:077.205 JLINK_JTAG_GetDeviceInfo(DeviceIndex = 0)
T13948 000:077.240 - 0.052ms returns 0
T13948 000:077.277 JLINK_JTAG_GetDeviceID(DeviceIndex = 1)
T13948 000:077.312 - 0.053ms returns 104935489
T13948 000:077.349 JLINK_JTAG_GetDeviceInfo(DeviceIndex = 1)
T13948 000:077.384 - 0.052ms returns 0
T13948 000:077.422 JLINK_GetDLLVersion()
T13948 000:077.457 - 0.052ms returns 68902
T13948 000:077.494 JLINK_CORE_GetFound()
T13948 000:077.533 - 0.057ms returns 0xE0000FF
T13948 000:077.571 JLINK_GetDebugInfo(0x100 = JLINKARM_ROM_TABLE_ADDR_INDEX)
T13948 000:077.608   Value=0xE00FF000
T13948 000:077.660 - 0.106ms returns 0
T13948 000:077.703 JLINK_GetDebugInfo(0x100 = JLINKARM_ROM_TABLE_ADDR_INDEX)
T13948 000:077.739   Value=0xE00FF000
T13948 000:077.791 - 0.105ms returns 0
T13948 000:077.827 JLINK_GetDebugInfo(0x101 = JLINKARM_DEBUG_INFO_ETM_ADDR_INDEX)
T13948 000:077.863   Value=0xE0041000
T13948 000:077.915 - 0.105ms returns 0
T13948 000:077.956 JLINK_ReadMemEx(0xE0041FD0, 0x20 Bytes, Flags = 0x02000004)
T13948 000:078.019   CPU_ReadMem(32 bytes @ 0xE0041FD0)
T13948 000:078.617   Data:  04 00 00 00 00 00 00 00 00 00 00 00 00 00 00 00 ...
T13948 000:078.671 - 0.732ms returns 32 (0x20)
T13948 000:078.712 JLINK_GetDebugInfo(0x102 = JLINKARM_DEBUG_INFO_MTB_ADDR_INDEX)
T13948 000:078.747   Value=0x00000000
T13948 000:078.798 - 0.103ms returns 0
T13948 000:078.836 JLINK_GetDebugInfo(0x103 = JLINKARM_DEBUG_INFO_TPIU_ADDR_INDEX)
T13948 000:078.871   Value=0xE0040000
T13948 000:078.926 - 0.106ms returns 0
T13948 000:078.975 JLINK_GetDebugInfo(0x104 = JLINKARM_DEBUG_INFO_ITM_ADDR_INDEX)
T13948 000:079.012   Value=0xE0000000
T13948 000:079.061 - 0.102ms returns 0
T13948 000:079.095 JLINK_GetDebugInfo(0x105 = JLINKARM_DEBUG_INFO_DWT_ADDR_INDEX)
T13948 000:079.128   Value=0xE0001000
T13948 000:079.177 - 0.098ms returns 0
T13948 000:079.214 JLINK_GetDebugInfo(0x106 = JLINKARM_DEBUG_INFO_FPB_ADDR_INDEX)
T13948 000:079.248   Value=0xE0002000
T13948 000:079.297 - 0.099ms returns 0
T13948 000:079.334 JLINK_GetDebugInfo(0x107 = JLINKARM_DEBUG_INFO_NVIC_ADDR_INDEX)
T13948 000:079.367   Value=0xE000E000
T13948 000:079.416 - 0.098ms returns 0
T13948 000:079.452 JLINK_GetDebugInfo(0x10C = JLINKARM_DEBUG_INFO_DBG_ADDR_INDEX)
T13948 000:079.551   Value=0xE000EDF0
T13948 000:079.603 - 0.167ms returns 0
T13948 000:079.640 JLINK_GetDebugInfo(0x01 = Unknown)
T13948 000:079.673   Value=0x00000001
T13948 000:079.722 - 0.099ms returns 0
T13948 000:079.759 JLINK_ReadMemU32(0xE000ED00, 0x1 Items)
T13948 000:079.798   CPU_ReadMem(4 bytes @ 0xE000ED00)
T13948 000:080.135   Data:  41 C2 0F 41
T13948 000:080.200   Debug reg: CPUID
T13948 000:080.246 - 0.503ms returns 1 (0x1)
T13948 000:080.287 JLINK_GetDebugInfo(0x10F = JLINKARM_DEBUG_INFO_HAS_CORTEX_M_SECURITY_EXT_INDEX)
T13948 000:080.320   Value=0x00000000
T13948 000:080.366 - 0.093ms returns 0
T13948 000:080.401 JLINK_HasError()
T13948 000:080.436 JLINK_SetResetType(JLINKARM_CM3_RESET_TYPE_NORMAL)
T13948 000:080.468 - 0.047ms returns JLINKARM_CM3_RESET_TYPE_NORMAL
T13948 000:080.502 JLINK_Reset()
T13948 000:080.549   CPU is running
T13948 000:080.596   CPU_WriteMem(4 bytes @ 0xE000EDF0)
T13948 000:080.897   CPU is running
T13948 000:080.948   CPU_WriteMem(4 bytes @ 0xE000EDFC)
T13948 000:081.266   Reset: Halt core after reset via DEMCR.VC_CORERESET.
T13948 000:081.327   Reset: Reset device via AIRCR.SYSRESETREQ.
T13948 000:081.376   CPU is running
T13948 000:081.426   CPU_WriteMem(4 bytes @ 0xE000ED0C)
T13948 000:134.822   CPU_ReadMem(4 bytes @ 0xE000EDF0)
T13948 000:135.394   CPU_ReadMem(4 bytes @ 0xE000EDF0)
T13948 000:135.919   CPU is running
T13948 000:136.008   CPU_WriteMem(4 bytes @ 0xE000EDF0)
T13948 000:136.453   CPU is running
T13948 000:136.535   CPU_WriteMem(4 bytes @ 0xE000EDFC)
T13948 000:142.482   CPU_ReadMem(4 bytes @ 0xE000EDF0)
T13948 000:145.282   CPU_WriteMem(4 bytes @ 0xE000EDFC)
T13948 000:145.657   CPU_WriteMem(4 bytes @ 0xE0001028)
T13948 000:146.110   CPU_WriteMem(4 bytes @ 0xE0001038)
T13948 000:146.519   CPU_WriteMem(4 bytes @ 0xE0001048)
T13948 000:146.894   CPU_WriteMem(4 bytes @ 0xE0001058)
T13948 000:147.250   CPU_WriteMem(4 bytes @ 0xE0002000)
T13948 000:147.599   CPU_ReadMem(4 bytes @ 0xE000EDFC)
T13948 000:147.968   CPU_ReadMem(4 bytes @ 0xE0001000)
T13948 000:148.416 - 67.942ms
T13948 000:148.551 JLINK_HasError()
T13948 000:148.608 JLINK_ReadReg(R15 (PC))
T13948 000:148.672 - 0.089ms returns 0x08000300
T13948 000:148.723 JLINK_ReadReg(XPSR)
T13948 000:148.774 - 0.075ms returns 0x01000000
T13948 000:148.826 JLINK_Halt()
T13948 000:148.888 - 0.087ms returns 0x00
T13948 000:148.940 JLINK_ReadMemU32(0xE000EDF0, 0x1 Items)
T13948 000:148.998   CPU_ReadMem(4 bytes @ 0xE000EDF0)
T13948 000:149.396   Data:  03 00 03 00
T13948 000:149.474   Debug reg: DHCSR
T13948 000:149.548 - 0.632ms returns 1 (0x1)
T13948 000:149.609 JLINK_WriteU32_64(0xE000EDF0, 0xA05F0003)
T13948 000:149.658   Debug reg: DHCSR
T13948 000:150.198   CPU_WriteMem(4 bytes @ 0xE000EDF0)
T13948 000:150.593 - 1.014ms returns 0 (0x00000000)
T13948 000:150.651 JLINK_WriteU32_64(0xE000EDFC, 0x01000000)
T13948 000:150.701   Debug reg: DEMCR
T13948 000:150.779   CPU_WriteMem(4 bytes @ 0xE000EDFC)
T13948 000:151.228 - 0.611ms returns 0 (0x00000000)
T13948 000:151.327 JLINK_GetHWStatus(...)
T13948 000:151.526 - 0.227ms returns 0
T13948 000:151.602 JLINK_GetNumBPUnits(Type = 0xFFFFFF00)
T13948 000:151.652 - 0.074ms returns 0x06
T13948 000:151.709 JLINK_GetNumBPUnits(Type = 0xF0)
T13948 000:151.761 - 0.075ms returns 0x2000
T13948 000:151.809 JLINK_GetNumWPUnits()
T13948 000:151.855 - 0.069ms returns 4
T13948 000:151.915 JLINK_GetSpeed()
T13948 000:151.962 - 0.070ms returns 4966
T13948 000:152.017 JLINK_ReadMemU32(0xE000E004, 0x1 Items)
T13948 000:152.068   CPU_ReadMem(4 bytes @ 0xE000E004)
T13948 000:152.426   Data:  02 00 00 00
T13948 000:152.500 - 0.506ms returns 1 (0x1)
T13948 000:152.550 JLINK_ReadMemU32(0xE000E004, 0x1 Items)
T13948 000:152.600   CPU_ReadMem(4 bytes @ 0xE000E004)
T13948 000:153.105   Data:  02 00 00 00
T13948 000:153.841 - 1.333ms returns 1 (0x1)
T13948 000:153.933 JLINK_WriteMemEx(0xE0001000, 0x0000001C Bytes, Flags = 0x02000004)
T13948 000:154.019   Data:  01 00 00 00 00 00 00 00 00 00 00 00 00 00 00 00 ...
T13948 000:154.173   CPU_WriteMem(28 bytes @ 0xE0001000)
T13948 000:154.874 - 0.973ms returns 0x1C
T13948 000:154.936 JLINK_HasError()
T13948 000:154.985 JLINK_ReadReg(R15 (PC))
T13948 000:155.036 - 0.074ms returns 0x08000300
T13948 000:155.083 JLINK_ReadReg(XPSR)
T13948 000:155.129 - 0.067ms returns 0x01000000
T13948 000:158.323 JLINK_ReadMemEx(0xE0001004, 0x4 Bytes, Flags = 0x02000000)
T13948 000:158.397   Data:  00 00 00 00
T13948 000:158.453   Debug reg: DWT_CYCCNT
T13948 000:158.508 - 0.203ms returns 4 (0x4)
T13948 000:241.246 JLINK_HasError()
T13948 000:241.362 JLINK_SetResetType(JLINKARM_CM3_RESET_TYPE_NORMAL)
T13948 000:241.413 - 0.074ms returns JLINKARM_CM3_RESET_TYPE_NORMAL
T13948 000:241.463 JLINK_Reset()
T13948 000:241.526   CPU_WriteMem(4 bytes @ 0xE000EDF0)
T13948 000:241.921   CPU_WriteMem(4 bytes @ 0xE000EDFC)
T13948 000:242.404   Reset: Halt core after reset via DEMCR.VC_CORERESET.
T13948 000:242.482   Reset: Reset device via AIRCR.SYSRESETREQ.
T13948 000:242.551   CPU_WriteMem(4 bytes @ 0xE000ED0C)
T13948 000:294.787   CPU_ReadMem(4 bytes @ 0xE000EDF0)
T13948 000:295.582   CPU_ReadMem(4 bytes @ 0xE000EDF0)
T13948 000:296.300   CPU_WriteMem(4 bytes @ 0xE000EDF0)
T13948 000:296.913   CPU_WriteMem(4 bytes @ 0xE000EDFC)
T13948 000:303.376   CPU_ReadMem(4 bytes @ 0xE000EDF0)
T13948 000:306.449   CPU_WriteMem(4 bytes @ 0xE000EDFC)
T13948 000:307.104   CPU_WriteMem(4 bytes @ 0xE0001028)
T13948 000:307.615   CPU_WriteMem(4 bytes @ 0xE0001038)
T13948 000:308.005   CPU_WriteMem(4 bytes @ 0xE0001048)
T13948 000:308.407   CPU_WriteMem(4 bytes @ 0xE0001058)
T13948 000:308.904   CPU_WriteMem(4 bytes @ 0xE0002000)
T13948 000:310.040   CPU_ReadMem(4 bytes @ 0xE000EDFC)
T13948 000:310.711   CPU_ReadMem(4 bytes @ 0xE0001000)
T13948 000:311.826 - 70.476ms
T13948 000:312.206 JLINK_HasError()
T13948 000:312.374 JLINK_ReadReg(R15 (PC))
T13948 000:312.463 - 0.127ms returns 0x08000300
T13948 000:312.544 JLINK_ReadReg(XPSR)
T13948 000:312.622 - 0.113ms returns 0x01000000
T13948 000:314.422 JLINK_ReadMemEx(0x08000300, 0x3C Bytes, Flags = 0x02000000)
T13948 000:314.521   CPU_ReadMem(64 bytes @ 0x08000300)
T13948 000:315.536    -- Updating C cache (64 bytes @ 0x08000300)
T13948 000:315.663    -- Read from C cache (60 bytes @ 0x08000300)
T13948 000:315.760   Data:  09 48 80 47 09 48 00 47 FE E7 FE E7 FE E7 FE E7 ...
T13948 000:315.851 - 1.458ms returns 60 (0x3C)
T13948 000:315.917 JLINK_ReadMemEx(0x08000300, 0x2 Bytes, Flags = 0x02000000)
T13948 000:315.980    -- Read from C cache (2 bytes @ 0x08000300)
T13948 000:316.067   Data:  09 48
T13948 000:316.154 - 0.266ms returns 2 (0x2)
T13948 000:316.322 JLINK_ReadMemEx(0x08000302, 0x2 Bytes, Flags = 0x02000000)
T13948 000:316.382    -- Read from C cache (2 bytes @ 0x08000302)
T13948 000:316.470   Data:  80 47
T13948 000:316.557 - 0.264ms returns 2 (0x2)
T13948 000:316.636 JLINK_ReadMemEx(0x08000302, 0x2 Bytes, Flags = 0x02000000)
T13948 000:316.695    -- Read from C cache (2 bytes @ 0x08000302)
T13948 000:316.781   Data:  80 47
T13948 000:316.869 - 0.262ms returns 2 (0x2)
T13948 000:316.929 JLINK_ReadMemEx(0x08000304, 0x3C Bytes, Flags = 0x02000000)
T13948 000:316.988    -- Read from C cache (60 bytes @ 0x08000304)
T13948 000:317.076   Data:  09 48 00 47 FE E7 FE E7 FE E7 FE E7 FE E7 FE E7 ...
T13948 000:317.173 - 0.273ms returns 60 (0x3C)
T13948 000:317.232 JLINK_ReadMemEx(0x08000304, 0x2 Bytes, Flags = 0x02000000)
T13948 000:317.289    -- Read from C cache (2 bytes @ 0x08000304)
T13948 000:317.370   Data:  09 48
T13948 000:317.451 - 0.246ms returns 2 (0x2)
T13948 000:511.174 JLINK_ReadMemEx(0x40000000, 0x10 Bytes, Flags = 0x02000004)
T13948 000:511.258   CPU_ReadMem(16 bytes @ 0x40000000)
T13948 000:511.708   Data:  00 00 00 00 00 00 00 00 00 00 00 00 00 00 00 00
T13948 000:511.781 - 0.622ms returns 16 (0x10)
T13948 000:511.827 JLINK_ReadMemEx(0x40000010, 0x4 Bytes, Flags = 0x02000004)
T13948 000:511.866   CPU_ReadMem(4 bytes @ 0x40000010)
T13948 000:512.584   Data:  00 00 00 00
T13948 000:512.927 - 1.131ms returns 4 (0x4)
T13948 000:512.997 JLINK_ReadMemEx(0x40000018, 0x14 Bytes, Flags = 0x02000004)
T13948 000:513.063   CPU_ReadMem(20 bytes @ 0x40000018)
T13948 000:513.595   Data:  00 00 00 00 00 00 00 00 00 00 00 00 00 00 00 00 ...
T13948 000:513.674 - 0.693ms returns 20 (0x14)
T13948 000:513.712 JLINK_ReadMemEx(0x4000002C, 0x4 Bytes, Flags = 0x02000004)
T13948 000:513.749   CPU_ReadMem(4 bytes @ 0x4000002C)
T13948 000:514.535   Data:  00 00 00 00
T13948 000:514.625 - 0.929ms returns 4 (0x4)
T13948 000:514.663 JLINK_ReadMemEx(0x40000034, 0xC Bytes, Flags = 0x02000004)
T13948 000:514.702   CPU_ReadMem(12 bytes @ 0x40000034)
T13948 000:515.075   Data:  00 00 00 00 00 00 00 00 00 00 00 00
T13948 000:515.144 - 0.497ms returns 12 (0xC)
T13948 000:515.182 JLINK_ReadMemEx(0x40000040, 0x4 Bytes, Flags = 0x02000004)
T13948 000:515.221   CPU_ReadMem(4 bytes @ 0x40000040)
T13948 000:515.711   Data:  00 00 00 00
T13948 000:515.807 - 0.640ms returns 4 (0x4)
T13948 000:515.844 JLINK_ReadMemEx(0x40000048, 0x8 Bytes, Flags = 0x02000004)
T13948 000:515.887   CPU_ReadMem(8 bytes @ 0x40000048)
T13948 000:516.231   Data:  00 00 00 00 00 00 00 00
T13948 000:516.280 - 0.451ms returns 8 (0x8)
T13948 000:516.313 JLINK_ReadMemEx(0x40000050, 0x4 Bytes, Flags = 0x02000004)
T13948 000:516.347   CPU_ReadMem(4 bytes @ 0x40000050)
T13948 000:516.677   Data:  00 00 00 00
T13948 000:516.726 - 0.428ms returns 4 (0x4)
T13948 000:580.646 JLINK_ReadMemEx(0x40000400, 0x10 Bytes, Flags = 0x02000004)
T13948 000:580.729   CPU_ReadMem(16 bytes @ 0x40000400)
T13948 000:581.163   Data:  00 00 00 00 00 00 00 00 00 00 00 00 00 00 00 00
T13948 000:581.252 - 0.622ms returns 16 (0x10)
T13948 000:581.292 JLINK_ReadMemEx(0x40000410, 0x4 Bytes, Flags = 0x02000004)
T13948 000:581.334   CPU_ReadMem(4 bytes @ 0x40000410)
T13948 000:581.729   Data:  00 00 00 00
T13948 000:581.781 - 0.505ms returns 4 (0x4)
T13948 000:581.818 JLINK_ReadMemEx(0x40000418, 0x14 Bytes, Flags = 0x02000004)
T13948 000:581.853   CPU_ReadMem(20 bytes @ 0x40000418)
T13948 000:582.242   Data:  00 00 00 00 00 00 00 00 00 00 00 00 00 00 00 00 ...
T13948 000:582.309 - 0.505ms returns 20 (0x14)
T13948 000:582.342 JLINK_ReadMemEx(0x4000042C, 0x4 Bytes, Flags = 0x02000004)
T13948 000:582.375   CPU_ReadMem(4 bytes @ 0x4000042C)
T13948 000:582.885   Data:  00 00 00 00
T13948 000:582.940 - 0.613ms returns 4 (0x4)
T13948 000:582.975 JLINK_ReadMemEx(0x40000434, 0xC Bytes, Flags = 0x02000004)
T13948 000:583.011   CPU_ReadMem(12 bytes @ 0x40000434)
T13948 000:583.421   Data:  00 00 00 00 00 00 00 00 00 00 00 00
T13948 000:583.470 - 0.510ms returns 12 (0xC)
T13948 000:583.508 JLINK_ReadMemEx(0x40000440, 0x4 Bytes, Flags = 0x02000004)
T13948 000:583.541   CPU_ReadMem(4 bytes @ 0x40000440)
T13948 000:583.925   Data:  00 00 00 00
T13948 000:583.974 - 0.481ms returns 4 (0x4)
T13948 000:584.007 JLINK_ReadMemEx(0x40000448, 0x4 Bytes, Flags = 0x02000004)
T13948 000:584.040   CPU_ReadMem(4 bytes @ 0x40000448)
T13948 000:584.390   Data:  00 00 00 00
T13948 000:584.468 - 0.477ms returns 4 (0x4)
T13948 000:584.506 JLINK_ReadMemEx(0x4000044C, 0x4 Bytes, Flags = 0x02000004)
T13948 000:584.544   CPU_ReadMem(4 bytes @ 0x4000044C)
T13948 000:584.886   Data:  00 00 00 00
T13948 000:584.935 - 0.445ms returns 4 (0x4)
T13948 000:653.136 JLINK_ReadMemEx(0x40000C00, 0x10 Bytes, Flags = 0x02000004)
T13948 000:653.222   CPU_ReadMem(16 bytes @ 0x40000C00)
T13948 000:653.775   Data:  00 00 00 00 00 00 00 00 00 00 00 00 00 00 00 00
T13948 000:653.859 - 0.738ms returns 16 (0x10)
T13948 000:653.898 JLINK_ReadMemEx(0x40000C10, 0x4 Bytes, Flags = 0x02000004)
T13948 000:653.937   CPU_ReadMem(4 bytes @ 0x40000C10)
T13948 000:654.309   Data:  00 00 00 00
T13948 000:654.390 - 0.508ms returns 4 (0x4)
T13948 000:654.428 JLINK_ReadMemEx(0x40000C18, 0x14 Bytes, Flags = 0x02000004)
T13948 000:654.466   CPU_ReadMem(20 bytes @ 0x40000C18)
T13948 000:655.419   Data:  00 00 00 00 00 00 00 00 00 00 00 00 00 00 00 00 ...
T13948 000:655.873 - 1.473ms returns 20 (0x14)
T13948 000:655.930 JLINK_ReadMemEx(0x40000C2C, 0x4 Bytes, Flags = 0x02000004)
T13948 000:655.977   CPU_ReadMem(4 bytes @ 0x40000C2C)
T13948 000:656.391   Data:  00 00 00 00
T13948 000:656.449 - 0.534ms returns 4 (0x4)
T13948 000:656.485 JLINK_ReadMemEx(0x40000C34, 0xC Bytes, Flags = 0x02000004)
T13948 000:656.521   CPU_ReadMem(12 bytes @ 0x40000C34)
T13948 000:656.911   Data:  00 00 00 00 00 00 00 00 00 00 00 00
T13948 000:656.975 - 0.505ms returns 12 (0xC)
T13948 000:657.011 JLINK_ReadMemEx(0x40000C40, 0x4 Bytes, Flags = 0x02000004)
T13948 000:657.049   CPU_ReadMem(4 bytes @ 0x40000C40)
T13948 000:657.387   Data:  00 00 00 00
T13948 000:657.954 - 0.959ms returns 4 (0x4)
T13948 000:657.992 JLINK_ReadMemEx(0x40000C48, 0x8 Bytes, Flags = 0x02000004)
T13948 000:658.031   CPU_ReadMem(8 bytes @ 0x40000C48)
T13948 000:658.493   Data:  00 00 00 00 00 00 00 00
T13948 000:658.542 - 0.564ms returns 8 (0x8)
T13948 000:658.576 JLINK_ReadMemEx(0x40000C50, 0x4 Bytes, Flags = 0x02000004)
T13948 000:658.610   CPU_ReadMem(4 bytes @ 0x40000C50)
T13948 000:659.053   Data:  00 00 00 00
T13948 000:659.101 - 0.540ms returns 4 (0x4)
T13948 002:712.533 JLINK_ReadMemEx(0x08000300, 0x3C Bytes, Flags = 0x02000000)
T13948 002:712.636    -- Read from C cache (60 bytes @ 0x08000300)
T13948 002:712.698   Data:  09 48 80 47 09 48 00 47 FE E7 FE E7 FE E7 FE E7 ...
T13948 002:712.757 - 0.244ms returns 60 (0x3C)
T13948 002:712.799 JLINK_ReadMemEx(0x08000300, 0x2 Bytes, Flags = 0x02000000)
T13948 002:712.839    -- Read from C cache (2 bytes @ 0x08000300)
T13948 002:712.898   Data:  09 48
T13948 002:712.957 - 0.178ms returns 2 (0x2)
T13948 002:712.999 JLINK_ReadMemEx(0x08000302, 0x2 Bytes, Flags = 0x02000000)
T13948 002:713.039    -- Read from C cache (2 bytes @ 0x08000302)
T13948 002:713.098   Data:  80 47
T13948 002:713.157 - 0.177ms returns 2 (0x2)
T13948 002:713.204 JLINK_ReadMemEx(0x08000302, 0x2 Bytes, Flags = 0x02000000)
T13948 002:713.244    -- Read from C cache (2 bytes @ 0x08000302)
T13948 002:713.303   Data:  80 47
T13948 002:713.362 - 0.177ms returns 2 (0x2)
T13948 002:713.403 JLINK_ReadMemEx(0x08000304, 0x3C Bytes, Flags = 0x02000000)
T13948 002:713.443    -- Read from C cache (60 bytes @ 0x08000304)
T13948 002:713.502   Data:  09 48 00 47 FE E7 FE E7 FE E7 FE E7 FE E7 FE E7 ...
T13948 002:713.560 - 0.186ms returns 60 (0x3C)
T13948 002:713.611 JLINK_ReadMemEx(0x08000304, 0x2 Bytes, Flags = 0x02000000)
T13948 002:713.651    -- Read from C cache (2 bytes @ 0x08000304)
T13948 002:713.716   Data:  09 48
T13948 002:713.776 - 0.184ms returns 2 (0x2)
T13948 003:110.980 JLINK_HasError()
T13948 003:111.053 JLINK_ReadReg(R0)
T13948 003:111.393 - 0.359ms returns 0x00000000
T13948 003:111.431 JLINK_ReadReg(R1)
T13948 003:111.463 - 0.047ms returns 0x00000000
T13948 003:111.495 JLINK_ReadReg(R2)
T13948 003:111.527 - 0.047ms returns 0x00000000
T13948 003:111.559 JLINK_ReadReg(R3)
T13948 003:111.591 - 0.047ms returns 0x00000000
T13948 003:111.623 JLINK_ReadReg(R4)
T13948 003:111.654 - 0.046ms returns 0x00000000
T13948 003:111.686 JLINK_ReadReg(R5)
T13948 003:111.717 - 0.046ms returns 0x00000000
T13948 003:111.753 JLINK_ReadReg(R6)
T13948 003:111.784 - 0.046ms returns 0x00000000
T13948 003:111.815 JLINK_ReadReg(R7)
T13948 003:111.846 - 0.046ms returns 0x00000000
T13948 003:111.879 JLINK_ReadReg(R8)
T13948 003:111.922 - 0.059ms returns 0x00000000
T13948 003:111.954 JLINK_ReadReg(R9)
T13948 003:111.984 - 0.045ms returns 0x00000000
T13948 003:112.016 JLINK_ReadReg(R10)
T13948 003:112.047 - 0.046ms returns 0x00000000
T13948 003:112.079 JLINK_ReadReg(R11)
T13948 003:112.110 - 0.046ms returns 0x00000000
T13948 003:112.142 JLINK_ReadReg(R12)
T13948 003:112.173 - 0.046ms returns 0x00000000
T13948 003:112.205 JLINK_ReadReg(R13 (SP))
T13948 003:112.236 - 0.046ms returns 0x20000D48
T13948 003:112.268 JLINK_ReadReg(R14)
T13948 003:112.299 - 1.279ms returns 0xFFFFFFFF
T13948 003:113.577 JLINK_ReadReg(R15 (PC))
T13948 003:113.615 - 0.053ms returns 0x08000300
T13948 003:113.648 JLINK_ReadReg(XPSR)
T13948 003:113.684 - 0.053ms returns 0x01000000
T13948 003:113.718 JLINK_ReadReg(MSP)
T13948 003:113.749 - 0.050ms returns 0x20000D48
T13948 003:113.786 JLINK_ReadReg(PSP)
T13948 003:113.818 - 0.046ms returns 0x00000000
T13948 003:113.850 JLINK_ReadReg(CFBP)
T13948 003:113.881 - 0.046ms returns 0x00000000
T13948 003:113.914 JLINK_ReadReg(FPSCR)
T13948 003:116.898 - 3.028ms returns 0x00000000
T13948 003:116.963 JLINK_ReadReg(FPS0)
T13948 003:116.998 - 0.050ms returns 0x00000000
T13948 003:117.030 JLINK_ReadReg(FPS1)
T13948 003:117.061 - 0.046ms returns 0x00000000
T13948 003:117.093 JLINK_ReadReg(FPS2)
T13948 003:117.124 - 0.046ms returns 0x00000000
T13948 003:117.156 JLINK_ReadReg(FPS3)
T13948 003:117.187 - 0.046ms returns 0x00000000
T13948 003:117.218 JLINK_ReadReg(FPS4)
T13948 003:117.249 - 0.051ms returns 0x00000000
T13948 003:117.286 JLINK_ReadReg(FPS5)
T13948 003:117.317 - 0.046ms returns 0x00000000
T13948 003:117.349 JLINK_ReadReg(FPS6)
T13948 003:117.380 - 0.046ms returns 0x00000000
T13948 003:117.411 JLINK_ReadReg(FPS7)
T13948 003:117.442 - 0.046ms returns 0x00000000
T13948 003:117.474 JLINK_ReadReg(FPS8)
T13948 003:117.505 - 0.046ms returns 0x00000000
T13948 003:117.536 JLINK_ReadReg(FPS9)
T13948 003:117.567 - 0.046ms returns 0x00000000
T13948 003:117.599 JLINK_ReadReg(FPS10)
T13948 003:117.630 - 0.046ms returns 0x00000000
T13948 003:117.661 JLINK_ReadReg(FPS11)
T13948 003:117.692 - 0.046ms returns 0x00000000
T13948 003:117.724 JLINK_ReadReg(FPS12)
T13948 003:117.755 - 0.046ms returns 0x00000000
T13948 003:117.790 JLINK_ReadReg(FPS13)
T13948 003:117.822 - 0.046ms returns 0x00000000
T13948 003:117.854 JLINK_ReadReg(FPS14)
T13948 003:117.884 - 0.046ms returns 0x00000000
T13948 003:117.916 JLINK_ReadReg(FPS15)
T13948 003:117.947 - 0.046ms returns 0x00000000
T13948 003:117.978 JLINK_ReadReg(FPS16)
T13948 003:118.009 - 0.046ms returns 0x00000000
T13948 003:118.041 JLINK_ReadReg(FPS17)
T13948 003:118.072 - 0.046ms returns 0x00000000
T13948 003:118.104 JLINK_ReadReg(FPS18)
T13948 003:118.134 - 0.046ms returns 0x00000000
T13948 003:118.166 JLINK_ReadReg(FPS19)
T13948 003:118.197 - 0.046ms returns 0x00000000
T13948 003:118.228 JLINK_ReadReg(FPS20)
T13948 003:118.259 - 0.046ms returns 0x00000000
T13948 003:118.290 JLINK_ReadReg(FPS21)
T13948 003:118.322 - 0.046ms returns 0x00000000
T13948 003:118.353 JLINK_ReadReg(FPS22)
T13948 003:118.384 - 0.045ms returns 0x00000000
T13948 003:118.415 JLINK_ReadReg(FPS23)
T13948 003:118.446 - 0.046ms returns 0x00000000
T13948 003:118.478 JLINK_ReadReg(FPS24)
T13948 003:118.508 - 0.046ms returns 0x00000000
T13948 003:118.541 JLINK_ReadReg(FPS25)
T13948 003:118.572 - 0.046ms returns 0x00000000
T13948 003:118.604 JLINK_ReadReg(FPS26)
T13948 003:118.643 - 0.055ms returns 0x00000000
T13948 003:118.675 JLINK_ReadReg(FPS27)
T13948 003:118.705 - 0.046ms returns 0x00000000
T13948 003:118.737 JLINK_ReadReg(FPS28)
T13948 003:118.768 - 0.045ms returns 0x00000000
T13948 003:118.799 JLINK_ReadReg(FPS29)
T13948 003:118.830 - 0.045ms returns 0x00000000
T13948 003:118.861 JLINK_ReadReg(FPS30)
T13948 003:118.892 - 0.046ms returns 0x00000000
T13948 003:118.924 JLINK_ReadReg(FPS31)
T13948 003:118.954 - 0.045ms returns 0x00000000
T13948 003:128.207 JLINK_ReadMemEx(0x20000090, 0x19 Bytes, Flags = 0x02000000)
T13948 003:128.281   CPU_ReadMem(64 bytes @ 0x20000080)
T13948 003:129.123    -- Updating C cache (64 bytes @ 0x20000080)
T13948 003:129.252    -- Read from C cache (25 bytes @ 0x20000090)
T13948 003:129.299   Data:  03 00 03 1F F8 C0 07 0C 60 00 03 18 9A D6 04 00 ...
T13948 003:129.345 - 1.153ms returns 25 (0x19)
T13948 003:154.935 JLINK_ReadMemEx(0x20000141, 0x1 Bytes, Flags = 0x02000000)
T13948 003:155.017   CPU_ReadMem(64 bytes @ 0x20000140)
T13948 003:155.864    -- Updating C cache (64 bytes @ 0x20000140)
T13948 003:155.944    -- Read from C cache (1 bytes @ 0x20000141)
T13948 003:155.991   Data:  00
T13948 003:156.038 - 1.118ms returns 1 (0x1)
T13948 003:156.154 JLINK_ReadMemEx(0x20000141, 0x1 Bytes, Flags = 0x02000000)
T13948 003:156.198    -- Read from C cache (1 bytes @ 0x20000141)
T13948 003:156.247   Data:  00
T13948 003:156.293 - 0.154ms returns 1 (0x1)
T13948 003:156.340 JLINK_ReadMemEx(0x20000141, 0x1 Bytes, Flags = 0x02000000)
T13948 003:156.372    -- Read from C cache (1 bytes @ 0x20000141)
T13948 003:156.418   Data:  00
T13948 003:156.470 - 0.146ms returns 1 (0x1)
T13EE0 003:220.957 JLINK_ReadMemEx(0x08000300, 0x2 Bytes, Flags = 0x02000000)
T13EE0 003:221.038    -- Read from C cache (2 bytes @ 0x08000300)
T13EE0 003:221.086   Data:  09 48
T13EE0 003:221.132 - 0.191ms returns 2 (0x2)
T13EE0 003:221.165 JLINK_HasError()
T13EE0 003:221.199 JLINK_SetBPEx(Addr = 0x08006A44, Type = 0xFFFFFFF2)
T13EE0 003:221.236 - 0.051ms returns 0x00000001
T13EE0 003:221.267 JLINK_HasError()
T13EE0 003:221.299 JLINK_HasError()
T13EE0 003:221.330 JLINK_Go()
T13EE0 003:223.864   CPU_ReadMem(4 bytes @ 0xE0001000)
T13EE0 003:224.356   CPU_WriteMem(4 bytes @ 0xE0002008)
T13EE0 003:224.440   CPU_WriteMem(4 bytes @ 0xE000200C)
T13EE0 003:224.487   CPU_WriteMem(4 bytes @ 0xE0002010)
T13EE0 003:224.534   CPU_WriteMem(4 bytes @ 0xE0002014)
T13EE0 003:224.580   CPU_WriteMem(4 bytes @ 0xE0002018)
T13EE0 003:224.626   CPU_WriteMem(4 bytes @ 0xE000201C)
T13EE0 003:226.072   CPU_WriteMem(4 bytes @ 0xE0001004)
T13EE0 003:226.823 - 5.539ms
T13EE0 003:327.432 JLINK_HasError()
T13EE0 003:327.506 JLINK_IsHalted()
T13EE0 003:329.850 - 2.389ms returns TRUE
T13EE0 003:329.918 JLINK_HasError()
T13EE0 003:329.951 JLINK_Halt()
T13EE0 003:329.982 - 0.046ms returns 0x00
T13EE0 003:330.014 JLINK_IsHalted()
T13EE0 003:330.044 - 0.045ms returns TRUE
T13EE0 003:330.076 JLINK_IsHalted()
T13EE0 003:330.106 - 0.045ms returns TRUE
T13EE0 003:330.138 JLINK_IsHalted()
T13EE0 003:330.169 - 0.045ms returns TRUE
T13EE0 003:330.200 JLINK_HasError()
T13EE0 003:330.232 JLINK_ReadReg(R15 (PC))
T13EE0 003:330.276 - 0.059ms returns 0x08006A44
T13EE0 003:330.309 JLINK_ReadReg(XPSR)
T13EE0 003:330.340 - 0.046ms returns 0x61000000
T13EE0 003:330.375 JLINK_HasError()
T13EE0 003:330.407 JLINK_ClrBPEx(BPHandle = 0x00000001)
T13EE0 003:330.438 - 0.046ms returns 0x00
T13EE0 003:330.470 JLINK_HasError()
T13EE0 003:330.501 JLINK_HasError()
T13EE0 003:330.532 JLINK_ReadMemU32(0xE000ED30, 0x1 Items)
T13EE0 003:330.569   CPU_ReadMem(4 bytes @ 0xE000ED30)
T13EE0 003:330.951   Data:  02 00 00 00
T13EE0 003:331.010 - 0.493ms returns 1 (0x1)
T13EE0 003:331.045 JLINK_ReadMemU32(0xE0001028, 0x1 Items)
T13EE0 003:331.085   CPU_ReadMem(4 bytes @ 0xE0001028)
T13EE0 003:331.581   Data:  00 00 00 00
T13EE0 003:331.674   Debug reg: DWT_FUNC[0]
T13EE0 003:331.721 - 0.691ms returns 1 (0x1)
T13EE0 003:331.756 JLINK_ReadMemU32(0xE0001038, 0x1 Items)
T13EE0 003:331.793   CPU_ReadMem(4 bytes @ 0xE0001038)
T13EE0 003:332.218   Data:  00 02 00 00
T13EE0 003:332.277   Debug reg: DWT_FUNC[1]
T13EE0 003:332.323 - 0.582ms returns 1 (0x1)
T13EE0 003:332.356 JLINK_ReadMemU32(0xE0001048, 0x1 Items)
T13EE0 003:332.391   CPU_ReadMem(4 bytes @ 0xE0001048)
T13EE0 003:332.743   Data:  00 00 00 00
T13EE0 003:332.813   Debug reg: DWT_FUNC[2]
T13EE0 003:332.860 - 0.519ms returns 1 (0x1)
T13EE0 003:332.895 JLINK_ReadMemU32(0xE0001058, 0x1 Items)
T13EE0 003:332.934   CPU_ReadMem(4 bytes @ 0xE0001058)
T13EE0 003:333.287   Data:  00 00 00 00
T13EE0 003:333.336   Debug reg: DWT_FUNC[3]
T13EE0 003:333.381 - 0.501ms returns 1 (0x1)
T13EE0 003:333.447 JLINK_HasError()
T13EE0 003:333.480 JLINK_ReadReg(R0)
T13EE0 003:333.513 - 0.048ms returns 0x20000748
T13EE0 003:333.545 JLINK_ReadReg(R1)
T13EE0 003:333.576 - 0.046ms returns 0x20000948
T13EE0 003:333.607 JLINK_ReadReg(R2)
T13EE0 003:333.637 - 0.045ms returns 0x20000948
T13EE0 003:333.674 JLINK_ReadReg(R3)
T13EE0 003:333.705 - 0.046ms returns 0x20000948
T13EE0 003:333.737 JLINK_ReadReg(R4)
T13EE0 003:333.767 - 0.045ms returns 0x00000000
T13EE0 003:333.798 JLINK_ReadReg(R5)
T13EE0 003:333.829 - 0.046ms returns 0x20000010
T13EE0 003:333.860 JLINK_ReadReg(R6)
T13EE0 003:333.891 - 0.046ms returns 0x00000000
T13EE0 003:333.922 JLINK_ReadReg(R7)
T13EE0 003:334.019 - 0.112ms returns 0x00000000
T13EE0 003:334.051 JLINK_ReadReg(R8)
T13EE0 003:334.082 - 0.046ms returns 0x00000000
T13EE0 003:334.113 JLINK_ReadReg(R9)
T13EE0 003:334.143 - 0.046ms returns 0x00000000
T13EE0 003:334.176 JLINK_ReadReg(R10)
T13EE0 003:334.208 - 0.047ms returns 0x0800780C
T13EE0 003:334.240 JLINK_ReadReg(R11)
T13EE0 003:334.271 - 0.046ms returns 0x00000000
T13EE0 003:334.303 JLINK_ReadReg(R12)
T13EE0 003:334.334 - 0.047ms returns 0x20000050
T13EE0 003:334.367 JLINK_ReadReg(R13 (SP))
T13EE0 003:334.398 - 0.047ms returns 0x20000D48
T13EE0 003:334.431 JLINK_ReadReg(R14)
T13EE0 003:334.462 - 0.047ms returns 0x080002EF
T13EE0 003:334.494 JLINK_ReadReg(R15 (PC))
T13EE0 003:334.525 - 0.046ms returns 0x08006A44
T13EE0 003:334.558 JLINK_ReadReg(XPSR)
T13EE0 003:334.589 - 0.046ms returns 0x61000000
T13EE0 003:334.621 JLINK_ReadReg(MSP)
T13EE0 003:334.652 - 0.046ms returns 0x20000D48
T13EE0 003:334.684 JLINK_ReadReg(PSP)
T13EE0 003:334.714 - 0.045ms returns 0x00000000
T13EE0 003:334.745 JLINK_ReadReg(CFBP)
T13EE0 003:334.776 - 0.046ms returns 0x04000000
T13EE0 003:334.808 JLINK_ReadReg(FPSCR)
T13EE0 003:337.778 - 2.991ms returns 0x03000000
T13EE0 003:337.825 JLINK_ReadReg(FPS0)
T13EE0 003:337.858 - 0.048ms returns 0x00000000
T13EE0 003:337.893 JLINK_ReadReg(FPS1)
T13EE0 003:337.924 - 0.046ms returns 0x00000000
T13EE0 003:337.958 JLINK_ReadReg(FPS2)
T13EE0 003:337.989 - 0.046ms returns 0x00000000
T13EE0 003:338.024 JLINK_ReadReg(FPS3)
T13EE0 003:338.055 - 0.046ms returns 0x00000000
T13EE0 003:338.090 JLINK_ReadReg(FPS4)
T13EE0 003:338.131 - 0.057ms returns 0x00000000
T13EE0 003:338.165 JLINK_ReadReg(FPS5)
T13EE0 003:338.196 - 0.046ms returns 0x00000000
T13EE0 003:338.230 JLINK_ReadReg(FPS6)
T13EE0 003:338.261 - 0.046ms returns 0x00000000
T13EE0 003:338.295 JLINK_ReadReg(FPS7)
T13EE0 003:338.327 - 0.047ms returns 0x00000000
T13EE0 003:338.361 JLINK_ReadReg(FPS8)
T13EE0 003:338.393 - 0.046ms returns 0x00000000
T13EE0 003:338.427 JLINK_ReadReg(FPS9)
T13EE0 003:338.458 - 0.046ms returns 0x00000000
T13EE0 003:338.492 JLINK_ReadReg(FPS10)
T13EE0 003:338.527 - 0.050ms returns 0x00000000
T13EE0 003:338.562 JLINK_ReadReg(FPS11)
T13EE0 003:338.594 - 0.046ms returns 0x00000000
T13EE0 003:338.628 JLINK_ReadReg(FPS12)
T13EE0 003:338.659 - 0.046ms returns 0x00000000
T13EE0 003:338.694 JLINK_ReadReg(FPS13)
T13EE0 003:338.725 - 0.046ms returns 0x00000000
T13EE0 003:338.758 JLINK_ReadReg(FPS14)
T13EE0 003:338.790 - 0.046ms returns 0x00000000
T13EE0 003:338.824 JLINK_ReadReg(FPS15)
T13EE0 003:338.855 - 0.046ms returns 0x00000000
T13EE0 003:338.889 JLINK_ReadReg(FPS16)
T13EE0 003:338.920 - 0.046ms returns 0x00000000
T13EE0 003:338.954 JLINK_ReadReg(FPS17)
T13EE0 003:338.987 - 0.048ms returns 0x00000000
T13EE0 003:339.021 JLINK_ReadReg(FPS18)
T13EE0 003:339.052 - 0.046ms returns 0x00000000
T13EE0 003:339.086 JLINK_ReadReg(FPS19)
T13EE0 003:339.117 - 0.046ms returns 0x00000000
T13EE0 003:339.152 JLINK_ReadReg(FPS20)
T13EE0 003:339.183 - 0.046ms returns 0x00000000
T13EE0 003:339.216 JLINK_ReadReg(FPS21)
T13EE0 003:339.248 - 0.046ms returns 0x00000000
T13EE0 003:339.281 JLINK_ReadReg(FPS22)
T13EE0 003:339.312 - 0.046ms returns 0x00000000
T13EE0 003:339.346 JLINK_ReadReg(FPS23)
T13EE0 003:339.378 - 0.046ms returns 0x00000000
T13EE0 003:339.411 JLINK_ReadReg(FPS24)
T13EE0 003:339.442 - 0.046ms returns 0x00000000
T13EE0 003:339.476 JLINK_ReadReg(FPS25)
T13EE0 003:339.514 - 0.053ms returns 0x00000000
T13EE0 003:339.548 JLINK_ReadReg(FPS26)
T13EE0 003:339.580 - 0.047ms returns 0x00000000
T13EE0 003:339.614 JLINK_ReadReg(FPS27)
T13EE0 003:339.646 - 0.046ms returns 0x00000000
T13EE0 003:339.680 JLINK_ReadReg(FPS28)
T13EE0 003:339.711 - 0.046ms returns 0x00000000
T13EE0 003:339.744 JLINK_ReadReg(FPS29)
T13EE0 003:339.775 - 0.046ms returns 0x00000000
T13EE0 003:339.810 JLINK_ReadReg(FPS30)
T13EE0 003:339.841 - 0.045ms returns 0x00000000
T13EE0 003:339.874 JLINK_ReadReg(FPS31)
T13EE0 003:339.906 - 0.046ms returns 0x00000000
T13948 003:342.489 JLINK_ReadMemEx(0x20000090, 0x19 Bytes, Flags = 0x02000000)
T13948 003:342.563   CPU_ReadMem(64 bytes @ 0x20000080)
T13948 003:343.449    -- Updating C cache (64 bytes @ 0x20000080)
T13948 003:343.548    -- Read from C cache (25 bytes @ 0x20000090)
T13948 003:343.602   Data:  00 00 00 00 00 00 00 00 00 00 00 00 00 00 00 00 ...
T13948 003:343.655 - 1.184ms returns 25 (0x19)
T13948 003:344.085 JLINK_ReadMemEx(0x20000141, 0x1 Bytes, Flags = 0x02000000)
T13948 003:344.146   CPU_ReadMem(64 bytes @ 0x20000140)
T13948 003:344.951    -- Updating C cache (64 bytes @ 0x20000140)
T13948 003:345.009    -- Read from C cache (1 bytes @ 0x20000141)
T13948 003:345.062   Data:  00
T13948 003:345.116 - 1.048ms returns 1 (0x1)
T13948 003:345.180 JLINK_ReadMemEx(0x40000C00, 0x10 Bytes, Flags = 0x02000004)
T13948 003:345.220   CPU_ReadMem(16 bytes @ 0x40000C00)
T13948 003:345.654   Data:  00 00 00 00 00 00 00 00 00 00 00 00 00 00 00 00
T13948 003:345.713 - 0.551ms returns 16 (0x10)
T13948 003:345.753 JLINK_ReadMemEx(0x40000C10, 0x4 Bytes, Flags = 0x02000004)
T13948 003:345.792   CPU_ReadMem(4 bytes @ 0x40000C10)
T13948 003:346.134   Data:  00 00 00 00
T13948 003:346.189 - 0.454ms returns 4 (0x4)
T13948 003:346.228 JLINK_ReadMemEx(0x40000C18, 0x14 Bytes, Flags = 0x02000004)
T13948 003:346.265   CPU_ReadMem(20 bytes @ 0x40000C18)
T13948 003:346.704   Data:  00 00 00 00 00 00 00 00 00 00 00 00 00 00 00 00 ...
T13948 003:346.780 - 0.570ms returns 20 (0x14)
T13948 003:346.817 JLINK_ReadMemEx(0x40000C2C, 0x4 Bytes, Flags = 0x02000004)
T13948 003:346.854   CPU_ReadMem(4 bytes @ 0x40000C2C)
T13948 003:347.186   Data:  00 00 00 00
T13948 003:347.245 - 0.445ms returns 4 (0x4)
T13948 003:347.283 JLINK_ReadMemEx(0x40000C34, 0xC Bytes, Flags = 0x02000004)
T13948 003:347.320   CPU_ReadMem(12 bytes @ 0x40000C34)
T13948 003:348.067   Data:  00 00 00 00 00 00 00 00 00 00 00 00
T13948 003:348.142 - 0.877ms returns 12 (0xC)
T13948 003:348.185 JLINK_ReadMemEx(0x40000C40, 0x4 Bytes, Flags = 0x02000004)
T13948 003:348.227   CPU_ReadMem(4 bytes @ 0x40000C40)
T13948 003:348.609   Data:  00 00 00 00
T13948 003:348.668 - 0.501ms returns 4 (0x4)
T13948 003:348.707 JLINK_ReadMemEx(0x40000C48, 0x8 Bytes, Flags = 0x02000004)
T13948 003:348.748   CPU_ReadMem(8 bytes @ 0x40000C48)
T13948 003:349.104   Data:  00 00 00 00 00 00 00 00
T13948 003:349.176 - 0.487ms returns 8 (0x8)
T13948 003:349.215 JLINK_ReadMemEx(0x40000C50, 0x4 Bytes, Flags = 0x02000004)
T13948 003:349.254   CPU_ReadMem(4 bytes @ 0x40000C50)
T13948 003:349.608   Data:  00 00 00 00
T13948 003:349.663 - 0.465ms returns 4 (0x4)
T13948 003:350.028 JLINK_ReadMemEx(0x40000400, 0x10 Bytes, Flags = 0x02000004)
T13948 003:350.081   CPU_ReadMem(16 bytes @ 0x40000400)
T13948 003:350.497   Data:  00 00 00 00 00 00 00 00 00 00 00 00 00 00 00 00
T13948 003:350.568 - 0.558ms returns 16 (0x10)
T13948 003:350.609 JLINK_ReadMemEx(0x40000410, 0x4 Bytes, Flags = 0x02000004)
T13948 003:350.650   CPU_ReadMem(4 bytes @ 0x40000410)
T13948 003:351.051   Data:  00 00 00 00
T13948 003:351.109 - 0.518ms returns 4 (0x4)
T13948 003:351.148 JLINK_ReadMemEx(0x40000418, 0x14 Bytes, Flags = 0x02000004)
T13948 003:351.187   CPU_ReadMem(20 bytes @ 0x40000418)
T13948 003:351.797   Data:  00 00 00 00 00 00 00 00 00 00 00 00 00 00 00 00 ...
T13948 003:351.862 - 0.731ms returns 20 (0x14)
T13948 003:351.902 JLINK_ReadMemEx(0x4000042C, 0x4 Bytes, Flags = 0x02000004)
T13948 003:351.941   CPU_ReadMem(4 bytes @ 0x4000042C)
T13948 003:352.402   Data:  00 00 00 00
T13948 003:352.462 - 0.577ms returns 4 (0x4)
T13948 003:352.500 JLINK_ReadMemEx(0x40000434, 0xC Bytes, Flags = 0x02000004)
T13948 003:352.539   CPU_ReadMem(12 bytes @ 0x40000434)
T13948 003:353.010   Data:  00 00 00 00 00 00 00 00 00 00 00 00
T13948 003:353.066 - 0.583ms returns 12 (0xC)
T13948 003:353.103 JLINK_ReadMemEx(0x40000440, 0x4 Bytes, Flags = 0x02000004)
T13948 003:353.140   CPU_ReadMem(4 bytes @ 0x40000440)
T13948 003:353.471   Data:  00 00 00 00
T13948 003:353.549 - 0.463ms returns 4 (0x4)
T13948 003:353.651 JLINK_ReadMemEx(0x40000448, 0x4 Bytes, Flags = 0x02000004)
T13948 003:353.698   CPU_ReadMem(4 bytes @ 0x40000448)
T13948 003:354.047   Data:  00 00 00 00
T13948 003:354.103 - 0.469ms returns 4 (0x4)
T13948 003:354.142 JLINK_ReadMemEx(0x4000044C, 0x4 Bytes, Flags = 0x02000004)
T13948 003:354.180   CPU_ReadMem(4 bytes @ 0x4000044C)
T13948 003:354.738   Data:  00 00 00 00
T13948 003:354.801 - 0.685ms returns 4 (0x4)
T13948 003:355.112 JLINK_ReadMemEx(0x40000000, 0x10 Bytes, Flags = 0x02000004)
T13948 003:355.152   CPU_ReadMem(16 bytes @ 0x40000000)
T13948 003:355.579   Data:  00 00 00 00 00 00 00 00 00 00 00 00 00 00 00 00
T13948 003:355.638 - 0.544ms returns 16 (0x10)
T13948 003:355.678 JLINK_ReadMemEx(0x40000010, 0x4 Bytes, Flags = 0x02000004)
T13948 003:355.716   CPU_ReadMem(4 bytes @ 0x40000010)
T13948 003:356.539   Data:  00 00 00 00
T13948 003:356.631 - 0.971ms returns 4 (0x4)
T13948 003:356.670 JLINK_ReadMemEx(0x40000018, 0x14 Bytes, Flags = 0x02000004)
T13948 003:356.710   CPU_ReadMem(20 bytes @ 0x40000018)
T13948 003:357.105   Data:  00 00 00 00 00 00 00 00 00 00 00 00 00 00 00 00 ...
T13948 003:357.171 - 0.519ms returns 20 (0x14)
T13948 003:357.211 JLINK_ReadMemEx(0x4000002C, 0x4 Bytes, Flags = 0x02000004)
T13948 003:357.251   CPU_ReadMem(4 bytes @ 0x4000002C)
T13948 003:357.607   Data:  00 00 00 00
T13948 003:357.664 - 0.471ms returns 4 (0x4)
T13948 003:357.702 JLINK_ReadMemEx(0x40000034, 0xC Bytes, Flags = 0x02000004)
T13948 003:357.741   CPU_ReadMem(12 bytes @ 0x40000034)
T13948 003:358.103   Data:  00 00 00 00 00 00 00 00 00 00 00 00
T13948 003:358.161 - 0.476ms returns 12 (0xC)
T13948 003:358.200 JLINK_ReadMemEx(0x40000040, 0x4 Bytes, Flags = 0x02000004)
T13948 003:358.237   CPU_ReadMem(4 bytes @ 0x40000040)
T13948 003:358.615   Data:  00 00 00 00
T13948 003:358.672 - 0.490ms returns 4 (0x4)
T13948 003:358.710 JLINK_ReadMemEx(0x40000048, 0x8 Bytes, Flags = 0x02000004)
T13948 003:358.748   CPU_ReadMem(8 bytes @ 0x40000048)
T13948 003:359.077   Data:  00 00 00 00 00 00 00 00
T13948 003:359.134 - 0.440ms returns 8 (0x8)
T13948 003:359.171 JLINK_ReadMemEx(0x40000050, 0x4 Bytes, Flags = 0x02000004)
T13948 003:359.209   CPU_ReadMem(4 bytes @ 0x40000050)
T13948 003:359.614   Data:  00 00 00 00
T13948 003:359.676 - 0.524ms returns 4 (0x4)
T13EE0 003:820.176 JLINK_ReadMemEx(0x08006A44, 0x2 Bytes, Flags = 0x02000000)
T13EE0 003:820.261   CPU_ReadMem(64 bytes @ 0x08006A40)
T13EE0 003:821.189    -- Updating C cache (64 bytes @ 0x08006A40)
T13EE0 003:821.243    -- Read from C cache (2 bytes @ 0x08006A44)
T13EE0 003:821.294   Data:  80 B5
T13EE0 003:821.343 - 1.183ms returns 2 (0x2)
T13EE0 003:821.380 JLINK_HasError()
T13EE0 003:821.415 JLINK_HasError()
T13EE0 003:821.455 JLINK_Go()
T13EE0 003:821.501   CPU_ReadMem(4 bytes @ 0xE0001000)
T13EE0 003:821.965   CPU_WriteMem(4 bytes @ 0xE0002008)
T13EE0 003:823.045 - 1.643ms
T13EE0 003:923.520 JLINK_HasError()
T13EE0 003:923.676 JLINK_IsHalted()
T13EE0 003:924.251 - 0.665ms returns FALSE
T13EE0 004:024.923 JLINK_HasError()
T13EE0 004:025.002 JLINK_IsHalted()
T13EE0 004:025.385 - 0.426ms returns FALSE
T13EE0 004:125.928 JLINK_HasError()
T13EE0 004:126.027 JLINK_IsHalted()
T13EE0 004:126.450 - 0.452ms returns FALSE
T13EE0 004:227.329 JLINK_HasError()
T13EE0 004:227.430 JLINK_IsHalted()
T13EE0 004:227.812 - 0.408ms returns FALSE
T13EE0 004:328.630 JLINK_HasError()
T13EE0 004:328.749 JLINK_IsHalted()
T13EE0 004:329.220 - 0.539ms returns FALSE
T13EE0 004:431.025 JLINK_HasError()
T13EE0 004:431.135 JLINK_HasError()
T13EE0 004:431.175 JLINK_ReadMemU32(0xE0001004, 0x1 Items)
T13EE0 004:431.236   CPU_ReadMem(4 bytes @ 0xE0001004)
T13EE0 004:431.768   Data:  23 1B 18 06
T13EE0 004:431.862   Debug reg: DWT_CYCCNT
T13EE0 004:431.912 - 0.754ms returns 1 (0x1)
T13948 004:432.498 JLINK_ReadMemEx(0x20000090, 0x19 Bytes, Flags = 0x02000000)
T13948 004:432.586   CPU_ReadMem(25 bytes @ 0x20000090)
T13948 004:434.476   Data:  0F E0 03 9F 07 C1 07 0C 60 00 03 18 9A D6 04 00 ...
T13948 004:434.571 - 2.090ms returns 25 (0x19)
T13948 004:437.820 JLINK_ReadMemEx(0x20000141, 0x1 Bytes, Flags = 0x02000000)
T13948 004:437.899   CPU_ReadMem(1 bytes @ 0x20000141)
T13948 004:438.321   Data:  00
T13948 004:438.388 - 0.586ms returns 1 (0x1)
T13948 004:438.449 JLINK_ReadMemEx(0x40000C00, 0x10 Bytes, Flags = 0x02000004)
T13948 004:438.491   CPU_ReadMem(16 bytes @ 0x40000C00)
T13948 004:439.026   Data:  01 00 00 00 00 00 00 00 00 00 00 00 01 00 00 00
T13948 004:439.082 - 0.650ms returns 16 (0x10)
T13948 004:439.120 JLINK_ReadMemEx(0x40000C10, 0x4 Bytes, Flags = 0x02000004)
T13948 004:439.158   CPU_ReadMem(4 bytes @ 0x40000C10)
T13948 004:439.671   Data:  1E 00 00 00
T13948 004:439.763 - 0.661ms returns 4 (0x4)
T13948 004:439.807 JLINK_ReadMemEx(0x40000C18, 0x14 Bytes, Flags = 0x02000004)
T13948 004:439.849   CPU_ReadMem(20 bytes @ 0x40000C18)
T13948 004:440.459   Data:  00 00 00 00 00 00 00 00 00 00 00 00 C5 02 00 00 ...
T13948 004:440.549 - 0.760ms returns 20 (0x14)
T13948 004:440.591 JLINK_ReadMemEx(0x40000C2C, 0x4 Bytes, Flags = 0x02000004)
T13948 004:440.633   CPU_ReadMem(4 bytes @ 0x40000C2C)
T13948 004:441.072   Data:  E7 03 00 00
T13948 004:441.128 - 0.555ms returns 4 (0x4)
T13948 004:441.166 JLINK_ReadMemEx(0x40000C34, 0xC Bytes, Flags = 0x02000004)
T13948 004:441.205   CPU_ReadMem(12 bytes @ 0x40000C34)
T13948 004:441.870   Data:  00 00 00 00 00 00 00 00 00 00 00 00
T13948 004:441.927 - 0.777ms returns 12 (0xC)
T13948 004:441.965 JLINK_ReadMemEx(0x40000C40, 0x4 Bytes, Flags = 0x02000004)
T13948 004:442.008   CPU_ReadMem(4 bytes @ 0x40000C40)
T13948 004:442.419   Data:  00 00 00 00
T13948 004:442.474 - 0.526ms returns 4 (0x4)
T13948 004:442.517 JLINK_ReadMemEx(0x40000C48, 0x8 Bytes, Flags = 0x02000004)
T13948 004:442.555   CPU_ReadMem(8 bytes @ 0x40000C48)
T13948 004:442.911   Data:  00 00 00 00 01 00 00 00
T13948 004:442.966 - 0.467ms returns 8 (0x8)
T13948 004:443.008 JLINK_ReadMemEx(0x40000C50, 0x4 Bytes, Flags = 0x02000004)
T13948 004:443.050   CPU_ReadMem(4 bytes @ 0x40000C50)
T13948 004:443.496   Data:  00 00 00 00
T13948 004:443.582 - 0.592ms returns 4 (0x4)
T13948 004:471.143 JLINK_ReadMemEx(0x40000400, 0x10 Bytes, Flags = 0x02000004)
T13948 004:471.245   CPU_ReadMem(16 bytes @ 0x40000400)
T13948 004:471.804   Data:  01 00 00 00 00 00 00 00 03 00 00 00 00 00 00 00
T13948 004:471.901 - 0.777ms returns 16 (0x10)
T13948 004:471.946 JLINK_ReadMemEx(0x40000410, 0x4 Bytes, Flags = 0x02000004)
T13948 004:471.991   CPU_ReadMem(4 bytes @ 0x40000410)
T13948 004:472.596   Data:  06 06 00 00
T13948 004:472.691 - 0.762ms returns 4 (0x4)
T13948 004:472.734 JLINK_ReadMemEx(0x40000418, 0x14 Bytes, Flags = 0x02000004)
T13948 004:472.778   CPU_ReadMem(20 bytes @ 0x40000418)
T13948 004:473.297   Data:  01 01 00 00 00 00 00 00 11 00 00 00 47 00 00 00 ...
T13948 004:473.385 - 0.669ms returns 20 (0x14)
T13948 004:473.427 JLINK_ReadMemEx(0x4000042C, 0x4 Bytes, Flags = 0x02000004)
T13948 004:473.469   CPU_ReadMem(4 bytes @ 0x4000042C)
T13948 004:473.888   Data:  FF FF 00 00
T13948 004:473.944 - 0.535ms returns 4 (0x4)
T13948 004:473.982 JLINK_ReadMemEx(0x40000434, 0xC Bytes, Flags = 0x02000004)
T13948 004:474.021   CPU_ReadMem(12 bytes @ 0x40000434)
T13948 004:474.424   Data:  46 00 00 00 43 00 00 00 00 00 00 00
T13948 004:474.479 - 0.514ms returns 12 (0xC)
T13948 004:474.516 JLINK_ReadMemEx(0x40000440, 0x4 Bytes, Flags = 0x02000004)
T13948 004:474.553   CPU_ReadMem(4 bytes @ 0x40000440)
T13948 004:474.889   Data:  00 00 00 00
T13948 004:474.945 - 0.446ms returns 4 (0x4)
T13948 004:474.982 JLINK_ReadMemEx(0x40000448, 0x4 Bytes, Flags = 0x02000004)
T13948 004:475.020   CPU_ReadMem(4 bytes @ 0x40000448)
T13948 004:475.386   Data:  00 00 00 00
T13948 004:475.445 - 0.480ms returns 4 (0x4)
T13948 004:475.483 JLINK_ReadMemEx(0x4000044C, 0x4 Bytes, Flags = 0x02000004)
T13948 004:475.520   CPU_ReadMem(4 bytes @ 0x4000044C)
T13948 004:478.771   Data:  01 00 00 00
T13948 004:478.880 - 3.418ms returns 4 (0x4)
T13948 004:479.658 JLINK_ReadMemEx(0x40000000, 0x10 Bytes, Flags = 0x02000004)
T13948 004:479.791   CPU_ReadMem(16 bytes @ 0x40000000)
T13948 004:480.194   Data:  81 00 00 00 00 00 00 00 00 00 00 00 00 00 00 00
T13948 004:480.285 - 0.646ms returns 16 (0x10)
T13948 004:480.329 JLINK_ReadMemEx(0x40000010, 0x4 Bytes, Flags = 0x02000004)
T13948 004:480.392   CPU_ReadMem(4 bytes @ 0x40000010)
T13948 004:480.731   Data:  1F 00 00 00
T13948 004:480.789 - 0.478ms returns 4 (0x4)
T13948 004:480.828 JLINK_ReadMemEx(0x40000018, 0x14 Bytes, Flags = 0x02000004)
T13948 004:480.867   CPU_ReadMem(20 bytes @ 0x40000018)
T13948 004:481.393   Data:  68 00 00 00 00 68 00 00 01 10 00 00 13 00 00 00 ...
T13948 004:481.451 - 0.641ms returns 20 (0x14)
T13948 004:481.490 JLINK_ReadMemEx(0x4000002C, 0x4 Bytes, Flags = 0x02000004)
T13948 004:481.529   CPU_ReadMem(4 bytes @ 0x4000002C)
T13948 004:481.940   Data:  63 00 00 00
T13948 004:481.997 - 0.524ms returns 4 (0x4)
T13948 004:482.035 JLINK_ReadMemEx(0x40000034, 0xC Bytes, Flags = 0x02000004)
T13948 004:482.074   CPU_ReadMem(12 bytes @ 0x40000034)
T13948 004:482.570   Data:  07 00 00 00 00 00 00 00 00 00 00 00
T13948 004:482.626 - 0.608ms returns 12 (0xC)
T13948 004:482.664 JLINK_ReadMemEx(0x40000040, 0x4 Bytes, Flags = 0x02000004)
T13948 004:482.703   CPU_ReadMem(4 bytes @ 0x40000040)
T13948 004:483.031   Data:  00 00 00 00
T13948 004:483.088 - 0.441ms returns 4 (0x4)
T13948 004:483.126 JLINK_ReadMemEx(0x40000048, 0x8 Bytes, Flags = 0x02000004)
T13948 004:483.165   CPU_ReadMem(8 bytes @ 0x40000048)
T13948 004:483.687   Data:  00 00 00 00 81 00 00 00
T13948 004:483.781 - 0.673ms returns 8 (0x8)
T13948 004:483.825 JLINK_ReadMemEx(0x40000050, 0x4 Bytes, Flags = 0x02000004)
T13948 004:483.870   CPU_ReadMem(4 bytes @ 0x40000050)
T13948 004:484.210   Data:  00 00 00 00
